<Qucs Dataset 0.0.15>
<indep x 10>
  +5.00000000000e+00
  +1.00000000000e+01
  +1.50000000000e+01
  +2.00000000000e+01
  +2.50000000000e+01
  +3.00000000000e+01
  +3.50000000000e+01
  +4.00000000000e+01
  +4.50000000000e+01
  +5.00000000000e+01
</indep>
<dep V1.I x>
  -1.36363636364e+00
  -9.37500000000e-01
  -7.14285714286e-01
  -5.76923076923e-01
  -4.83870967742e-01
  -4.16666666667e-01
  -3.65853658537e-01
  -3.26086956522e-01
  -2.94117647059e-01
  -2.67857142857e-01
</dep>
<dep izeja.V x>
  +6.81818181818e+00
  +9.37500000000e+00
  +1.07142857143e+01
  +1.15384615385e+01
  +1.20967741935e+01
  +1.25000000000e+01
  +1.28048780488e+01
  +1.30434782609e+01
  +1.32352941176e+01
  +1.33928571429e+01
</dep>
<dep _net0.V x>
  +1.50000000000e+01
  +1.50000000000e+01
  +1.50000000000e+01
  +1.50000000000e+01
  +1.50000000000e+01
  +1.50000000000e+01
  +1.50000000000e+01
  +1.50000000000e+01
  +1.50000000000e+01
  +1.50000000000e+01
</dep>
